EC-Lab ASCII FILE
Nb header lines : 61                          

Potentio Electrochemical Impedance Spectroscopy

Run on channel : 1 (SN 12040)
User : kknu
CE vs. WE compliance from -10 V to 10 V
Electrode connection : standard
Ewe ctrl range : min = -1.50 V, max = 0.50 V
Safety Limits :
	Do not start on E overload
Acquisition started on : xx/xx/xxxx xx:xx:xx
Technique started on : xx/xx/xxxx xx:xx:xx
Saved on :
	File : xxx
	Directory : xxx\
	Host : xxx.xxx.xxx.xx
Device : VSP (SN xxxx)
Address : xxx.xxx.xx.xxx
EC-Lab for windows v11.16 (software)
Internet server v11.16 (firmware)
Command interpretor v11.16 (firmware)
Electrode material : 
Initial state : 
Electrolyte : 
Comments : 
Electrode surface area : 0.001 cm²
Characteristic mass : 0.001 g
Equivalent Weight : 0.000 g/eq.
Density : 0.000 g/cm3
Cycle Definition : Charge/Discharge alternance
Mode                Single sine         
E (V)               -1.1000             
vs.                 Ref                 
tE (h:m:s)          0:01:0.0000         
record              0                   
dI                  0.000               
unit dI             mA                  
dt (s)              0.000               
fi                  200.000             
unit fi             kHz                 
ff                  10.000              
unit ff             mHz                 
Nd                  8                   
Points              per decade          
spacing             Logarithmic         
Va (mV)             10.0                
pw                  0.50                
Na                  3                   
corr                0                   
E range min (V)     -1.500              
E range max (V)     0.500               
I Range             Auto                
Bandwidth           5                   
nc cycles           0                   
goto Ns'            0                   
nr cycles           1                   
inc. cycle          1                   

freq/Hz	Re(Z)/Ohm	-Im(Z)/Ohm	|Z|/Ohm	Phase(Z)/deg	time/s	<Ewe>/V	<I>/mA	Cs/µF	Cp/µF	cycle number	I Range	|Ewe|/V	|I|/A	Re(Y)/Ohm-1	Im(Y)/Ohm-1	|Y|/Ohm-1	Phase(Y)/deg	
2.0001948E+005	4.2492365E+002	3.7577924E+002	5.6724786E+002	-4.1487789E+001	1.727976517335727E+004	-1.1015180E+000	-5.2660145E-003	2.1174592E-003	9.2925492E-004	1.000000000000000E+000	12	1.0312537E-002	1.8179948E-005	1.3205813E-003	1.1678500E-003	1.7628978E-003	4.1487789E+001
1.4967770E+005	3.9626755E+002	8.2815405E+002	9.1807794E+002	-6.4429123E+001	1.728044817770971E+004	-1.1005892E+000	-4.1033491E-003	1.2839611E-003	1.0447564E-003	1.000000000000000E+000	12	1.0202343E-002	1.1112719E-005	4.7014235E-004	9.8254404E-004	1.0892322E-003	6.4429123E+001
1.1201170E+005	8.5482782E+002	1.3166176E+003	1.5697810E+003	-5.7005928E+001	1.728113116014216E+004	-1.1005166E+000	-4.0968475E-003	1.0791880E-003	7.5916864E-004	1.000000000000000E+000	12	1.0199385E-002	6.4973297E-006	3.4689694E-004	5.3429545E-004	6.3703151E-004	5.7005928E+001
8.3828102E+004	1.5156783E+003	1.3080200E+003	2.0020482E+003	-4.0793968E+001	1.728168817936862E+004	-1.1004291E+000	-4.0928978E-003	1.4514968E-003	6.1957777E-004	1.000000000000000E+000	12	1.0834106E-002	5.4115112E-006	3.7814467E-004	3.2633627E-004	4.9948849E-004	4.0793968E+001
6.2734359E+004	1.8993096E+003	9.9715741E+002	2.1451572E+003	-2.7699944E+001	1.728224516190181E+004	-1.1004812E+000	-4.0972568E-003	2.5441984E-003	5.4974353E-004	1.000000000000000E+000	12	1.0455391E-002	4.8739512E-006	4.1274089E-004	2.1669328E-004	4.6616630E-004	2.7699944E+001
4.6953109E+004	2.0613062E+003	7.4600525E+002	2.1921467E+003	-1.9895645E+001	1.728280216022150E+004	-1.1004795E+000	-4.0899543E-003	4.5437440E-003	5.2620919E-004	1.000000000000000E+000	12	1.0227565E-002	4.6655473E-006	4.2894666E-004	1.5523964E-004	4.5617385E-004	1.9895645E+001
3.5136707E+004	2.1270959E+003	5.4034827E+002	2.1946558E+003	-1.4253407E+001	1.728335917078133E+004	-1.1004335E+000	-4.0950216E-003	8.3827274E-003	5.0815946E-004	1.000000000000000E+000	12	1.0237712E-002	4.6648374E-006	4.4162566E-004	1.1218659E-004	4.5565233E-004	1.4253407E+001
2.6298820E+004	2.1383530E+003	3.9413632E+002	2.1743728E+003	-1.0443415E+001	1.728391616427444E+004	-1.1004623E+000	-4.0933634E-003	1.5354561E-002	5.0450134E-004	1.000000000000000E+000	12	9.9493992E-003	4.5757561E-006	4.5228418E-004	8.3363986E-005	4.5990275E-004	1.0443415E+001
1.9677732E+004	2.1705159E+003	2.9890399E+002	2.1910005E+003	-7.8409429E+000	1.728434716528159E+004	-1.1004814E+000	-4.1048769E-003	2.7059101E-002	5.0360709E-004	1.000000000000000E+000	12	1.0622441E-002	4.8482148E-006	4.5214532E-004	6.2265397E-005	4.5641250E-004	7.8409429E+000
1.4726557E+004	2.1808701E+003	2.3038039E+002	2.1930046E+003	-6.0301852E+000	1.728490316362801E+004	-1.1004317E+000	-4.0891157E-003	4.6910863E-002	5.1770854E-004	1.000000000000000E+000	12	1.0100188E-002	4.6056389E-006	4.5347222E-004	4.7903406E-005	4.5599538E-004	6.0301852E+000
1.1025388E+004	2.1766016E+003	1.7161397E+002	2.1833564E+003	-4.5081549E+000	1.728533417996846E+004	-1.1004245E+000	-4.0864330E-003	8.4115036E-002	5.1967235E-004	1.000000000000000E+000	12	1.0304026E-002	4.7193516E-006	4.5659341E-004	3.6000070E-005	4.5801041E-004	4.5081549E+000
8.3251924E+003	2.1829543E+003	1.4192134E+002	2.1875630E+003	-3.7197599E+000	1.728583166497876E+004	-1.1002678E+000	-4.0530483E-003	1.3470328E-001	5.6696002E-004	1.000000000000000E+000	12	1.0441945E-002	4.7733233E-006	4.5616666E-004	2.9656958E-005	4.5712970E-004	3.7197599E+000
6.1954932E+003	2.1861721E+003	1.2340367E+002	2.1896523E+003	-3.2307677E+000	1.728646891159572E+004	-1.1003968E+000	-4.1057896E-003	2.0816907E-001	6.6118350E-004	1.000000000000000E+000	12	1.0512865E-002	4.8011570E-006	4.5596765E-004	2.5738176E-005	4.5669349E-004	3.2307677E+000
4.6214780E+003	2.1923655E+003	9.0249115E+001	2.1942222E+003	-2.3572600E+000	1.728722377995157E+004	-1.1004809E+000	-4.1357274E-003	3.8158935E-001	6.4553675E-004	1.000000000000000E+000	12	1.0564272E-002	4.8145866E-006	4.5535670E-004	1.8744839E-005	4.5574235E-004	2.3572600E+000
3.4561052E+003	2.1946309E+003	7.9856651E+001	2.1960833E+003	-2.0839183E+000	1.728797775750741E+004	-1.1004293E+000	-4.1061807E-003	5.7666296E-001	7.6251198E-004	1.000000000000000E+000	12	1.0623649E-002	4.8375437E-006	4.5505498E-004	1.6558215E-005	4.5535614E-004	2.0839183E+000
2.5858269E+003	2.1881006E+003	7.8927811E+001	2.1895237E+003	-2.0658422E+000	1.728873175815656E+004	-1.1004602E+000	-4.1012811E-003	7.7981329E-001	1.0133312E-003	1.000000000000000E+000	12	1.0602404E-002	4.8423335E-006	4.5642350E-004	1.6463826E-005	4.5672033E-004	2.0658422E+000
1.9356189E+003	2.1991465E+003	7.1520699E+001	2.2003091E+003	-1.8627183E+000	1.728948578309902E+004	-1.1004291E+000	-4.1113971E-003	1.1496576E+000	1.2146877E-003	1.000000000000000E+000	12	1.0617529E-002	4.8254715E-006	4.5424144E-004	1.4772852E-005	4.5448160E-004	1.8627183E+000
1.4486094E+003	2.2000630E+003	6.8751343E+001	2.2011370E+003	-1.7898943E+000	1.729024004209481E+004	-1.1004224E+000	-4.0808255E-003	1.5980401E+000	1.5590352E-003	1.000000000000000E+000	12	1.0635410E-002	4.8317806E-006	4.5408902E-004	1.4190153E-005	4.5431068E-004	1.7898943E+000
1.0839595E+003	2.2036458E+003	9.5639748E+001	2.2057202E+003	-2.4851167E+000	1.729099403794398E+004	-1.1004648E+000	-4.0980396E-003	1.5352131E+000	2.8863212E-003	1.000000000000000E+000	12	1.0593745E-002	4.8028510E-006	4.5294029E-004	1.9657920E-005	4.5336667E-004	2.4851167E+000
8.1129767E+002	2.2034373E+003	1.0835541E+002	2.2060999E+003	-2.8152881E+000	1.729174651456636E+004	-1.1005355E+000	-4.1139494E-003	1.8104615E+000	4.3675727E-003	1.000000000000000E+000	12	1.0626782E-002	4.8169995E-006	4.5274154E-004	2.2263850E-005	4.5328864E-004	2.8152881E+000
6.0752716E+002	2.2155981E+003	1.2863954E+002	2.2193293E+003	-3.3229122E+000	1.729249698308203E+004	-1.1004623E+000	-4.0908670E-003	2.0364790E+000	6.8420367E-003	1.000000000000000E+000	12	1.0601557E-002	4.7769190E-006	4.4982901E-004	2.6117465E-005	4.5058658E-004	3.3229122E+000
4.5456351E+002	2.2116316E+003	1.7668991E+002	2.2186785E+003	-4.5677271E+000	1.729325100813119E+004	-1.1004479E+000	-4.1017840E-003	1.9815902E+000	1.2567491E-002	1.000000000000000E+000	12	1.0598482E-002	4.7769345E-006	4.4928724E-004	3.5894096E-005	4.5071877E-004	4.5677271E+000
3.4010876E+002	2.2437310E+003	2.0195297E+002	2.2528013E+003	-5.1431999E+000	1.729400476446032E+004	-1.1004575E+000	-4.1010575E-003	2.3171389E+000	1.8621163E-002	1.000000000000000E+000	12	1.0631163E-002	4.7190861E-006	4.4210459E-004	3.9792798E-005	4.4389180E-004	5.1431999E+000
2.5443001E+002	2.2445747E+003	2.5511610E+002	2.2590264E+003	-6.4843535E+000	1.729476028041617E+004	-1.1004585E+000	-4.0790932E-003	2.4519632E+000	3.1271383E-002	1.000000000000000E+000	12	1.0605275E-002	4.6946220E-006	4.3983673E-004	4.9991399E-005	4.4266859E-004	6.4843535E+000
1.9054874E+002	2.2702656E+003	3.2947559E+002	2.2940488E+003	-8.2574825E+000	1.729551123253186E+004	-1.1004353E+000	-4.1080061E-003	2.5350749E+000	5.2291606E-002	1.000000000000000E+000	12	1.0658216E-002	4.6460282E-006	4.3139127E-004	6.2606283E-005	4.3591051E-004	8.2574825E+000
1.4249214E+002	2.3000288E+003	4.2620044E+002	2.3391836E+003	-1.0497960E+001	1.729627636659483E+004	-1.1004298E+000	-4.1163336E-003	2.6206882E+000	8.6999051E-002	1.000000000000000E+000	12	1.0617711E-002	4.5390666E-006	4.2034383E-004	7.7890647E-005	4.2749959E-004	1.0497960E+001
1.0667264E+002	2.3407705E+003	5.5973419E+002	2.4067632E+003	-1.3448261E+001	1.729726367629506E+004	-1.1005290E+000	-4.2275223E-003	2.6655402E+000	1.4417243E-001	1.000000000000000E+000	13	1.0677201E-002	4.4363319E-006	4.0410305E-004	9.6630698E-005	4.1549580E-004	1.3448261E+001
7.9821213E+001	2.3741821E+003	6.8548193E+002	2.4711589E+003	-1.6104666E+001	1.729801929238427E+004	-1.1005244E+000	-4.2421948E-003	2.9087460E+000	2.2381875E-001	1.000000000000000E+000	13	1.0624304E-002	4.2993206E-006	3.8878786E-004	1.1225214E-004	4.0466842E-004	1.6104666E+001
5.9789532E+001	2.5879268E+003	7.8728827E+002	2.7050300E+003	-1.6920591E+001	1.729877554908686E+004	-1.1004863E+000	-4.2278203E-003	3.3811250E+000	2.8640762E-001	1.000000000000000E+000	13	1.0593926E-002	3.9163801E-006	3.5367778E-004	1.0759438E-004	3.6968166E-004	1.6920591E+001
4.4728039E+001	2.5453013E+003	1.1241794E+003	2.7825056E+003	-2.3829540E+001	1.729953305162955E+004	-1.1003994E+000	-4.2205052E-003	3.1652255E+000	5.1665878E-001	1.000000000000000E+000	13	1.0672521E-002	3.8355793E-006	3.2875099E-004	1.4519897E-004	3.5938830E-004	2.3829540E+001
3.3427559E+001	2.6803608E+003	1.4445276E+003	3.0448308E+003	-2.8321571E+001	1.730031924030685E+004	-1.1004229E+000	-4.2187930E-003	3.2960186E+000	7.4184811E-001	1.000000000000000E+000	13	1.0649205E-002	3.4974703E-006	2.8911253E-004	1.5581150E-004	3.2842546E-004	2.8321571E+001
2.5040062E+001	2.8848799E+003	1.8231395E+003	3.4126777E+003	-3.2291405E+001	1.730107152596931E+004	-1.1004145E+000	-4.2184577E-003	3.4863007E+000	9.9497944E-001	1.000000000000000E+000	13	1.0651256E-002	3.1210845E-006	2.4770634E-004	1.5654144E-004	2.9302502E-004	3.2291405E+001
1.8735012E+001	3.1646501E+003	2.2589106E+003	3.8881470E+003	-3.5519047E+001	1.730187132358056E+004	-1.1004242E+000	-4.2194412E-003	3.7606862E+000	1.2693455E+000	1.000000000000000E+000	13	1.0604692E-002	2.7274411E-006	2.0933428E-004	1.4942170E-004	2.5719192E-004	3.5519047E+001
1.4017643E+001	3.6159553E+003	2.7235623E+003	4.5269111E+003	-3.6987309E+001	1.730267387335208E+004	-1.1004614E+000	-4.2353123E-003	4.1687689E+000	1.5089628E+000	1.000000000000000E+000	13	1.0591966E-002	2.3397777E-006	1.7644896E-004	1.3290257E-004	2.2090117E-004	3.6987309E+001
1.0500673E+001	4.2019873E+003	3.2350684E+003	5.3030522E+003	-3.7592319E+001	1.730339427725296E+004	-1.1004522E+000	-4.2207330E-003	4.6851072E+000	1.7435509E+000	1.000000000000000E+000	13	1.0600098E-002	1.9988674E-006	1.4941799E-004	1.1503544E-004	1.8857064E-004	3.7592319E+001
7.8596544E+000	4.9270518E+003	3.6834690E+003	6.1517300E+003	-3.6781830E+001	1.730433732367109E+004	-1.1004395E+000	-4.2274501E-003	5.4974289E+000	1.9709661E+000	1.000000000000000E+000	13	1.0660902E-002	1.7329925E-006	1.3019447E-004	9.7333534E-005	1.6255589E-004	3.6781830E+001
5.8829055E+000	5.7976758E+003	4.0185964E+003	7.0542300E+003	-3.4727348E+001	1.730498680316861E+004	-1.1004412E+000	-4.2237607E-003	6.7321510E+000	2.1847584E+000	1.000000000000000E+000	13	1.0622083E-002	1.5057750E-006	1.1650772E-004	8.0756072E-005	1.4175892E-004	3.4727348E+001
4.3989296E+000	6.7143149E+003	4.2349839E+003	7.9383320E+003	-3.2241249E+001	1.730583618352894E+004	-1.1004326E+000	-4.2268112E-003	8.5432158E+000	2.4314556E+000	1.000000000000000E+000	13	1.0624996E-002	1.3384420E-006	1.0654748E-004	6.7203706E-005	1.2597104E-004	3.2241249E+001
3.2936332E+000	7.6587686E+003	4.3717051E+003	8.8186475E+003	-2.9718178E+001	1.730694952523510E+004	-1.1004360E+000	-4.2240070E-003	1.1053353E+001	2.7163880E+000	1.000000000000000E+000	13	1.0625710E-002	1.2049138E-006	9.8481578E-005	5.6214318E-005	1.1339608E-004	2.9718178E+001
2.4660668E+000	8.4496611E+003	4.3461123E+003	9.5018662E+003	-2.7219181E+001	1.730841742978489E+004	-1.1004400E+000	-4.2194682E-003	1.4849586E+001	3.1066935E+000	1.000000000000000E+000	13	1.0645796E-002	1.1203899E-006	9.3588278E-005	4.8137455E-005	1.0524249E-004	2.7219181E+001
1.8425707E+000	9.3084707E+003	4.3971294E+003	1.0294774E+004	-2.5285084E+001	1.731036370299733E+004	-1.1004226E+000	-4.2095161E-003	1.9643854E+001	3.5836992E+000	1.000000000000000E+000	13	1.0622782E-002	1.0318615E-006	8.7830362E-005	4.1489253E-005	9.7136661E-005	2.5285084E+001
1.3812761E+000	9.9774814E+003	4.4473403E+003	1.0923780E+004	-2.4024336E+001	1.731294416111987E+004	-1.1004200E+000	-4.2080507E-003	2.5908319E+001	4.2943168E+000	1.000000000000000E+000	13	1.0626460E-002	9.7278235E-007	8.3613231E-005	3.7269572E-005	9.1543399E-005	2.4024336E+001
1.0333992E+000	1.0678203E+004	4.5992715E+003	1.1626578E+004	-2.3302313E+001	1.731637606096291E+004	-1.1004339E+000	-4.2046388E-003	3.3485977E+001	5.2400718E+000	1.000000000000000E+000	13	1.0625277E-002	9.1387824E-007	7.8994046E-005	3.4023989E-005	8.6009830E-005	2.3302313E+001
7.7320820E-001	1.1410581E+004	4.9377622E+003	1.2433136E+004	-2.3399841E+001	1.732094889347343E+004	-1.1004339E+000	-4.2010034E-003	4.1686314E+001	6.5749507E+000	1.000000000000000E+000	13	1.0628432E-002	8.5484726E-007	7.3815303E-005	3.1942494E-005	8.0430233E-005	2.3399841E+001
5.7853222E-001	1.2107851E+004	5.2686870E+003	1.3204511E+004	-2.3516092E+001	1.732704521242960E+004	-1.1004251E+000	-4.1946247E-003	5.2214390E+001	8.3128576E+000	1.000000000000000E+000	13	1.0629439E-002	8.0498540E-007	6.9442031E-005	3.0217449E-005	7.5731696E-005	2.3516092E+001
4.3306541E-001	1.2888501E+004	5.7842534E+003	1.4126962E+004	-2.4170151E+001	1.733752840615425E+004	-1.1004319E+000	-4.2067384E-003	6.3535923E+001	1.0651638E+001	1.000000000000000E+000	14	1.0634080E-002	7.5275062E-007	6.4581014E-005	2.8983428E-005	7.0786627E-005	2.4170151E+001
3.2390133E-001	1.3683015E+004	6.4643159E+003	1.5133151E+004	-2.5287624E+001	1.734838242192310E+004	-1.1004211E+000	-4.1998480E-003	7.6012474E+001	1.3869834E+001	1.000000000000000E+000	14	1.0627820E-002	7.0228731E-007	5.9747952E-005	2.8226939E-005	6.6080087E-005	2.5287624E+001
2.4232319E-001	1.4675755E+004	7.3682144E+003	1.6421582E+004	-2.6659723E+001	1.736287735810486E+004	-1.1004301E+000	-4.1941260E-003	8.9138000E+001	1.7945576E+001	1.000000000000000E+000	14	1.0630012E-002	6.4731961E-007	5.4421493E-005	2.7323244E-005	6.0895472E-005	2.6659723E+001
1.8153407E-001	1.5764680E+004	8.4600146E+003	1.7891254E+004	-2.8219948E+001	1.738221212584991E+004	-1.1004252E+000	-4.1884137E-003	1.0363129E+002	2.3171362E+001	1.000000000000000E+000	14	1.0626576E-002	5.9395370E-007	4.9249702E-005	2.6429538E-005	5.5893233E-005	2.8219948E+001
1.3584591E-001	1.7060492E+004	9.8621006E+003	1.9705873E+004	-3.0030771E+001	1.740803818379657E+004	-1.1004344E+000	-4.1913432E-003	1.1879663E+002	2.9754429E+001	1.000000000000000E+000	14	1.0623168E-002	5.3908639E-007	4.3933946E-005	2.5396746E-005	5.0746294E-005	3.0030771E+001
1.0172522E-001	1.8714566E+004	1.1554880E+004	2.1994322E+004	-3.1692307E+001	1.744251398871411E+004	-1.1004306E+000	-4.1992422E-003	1.3540230E+002	3.7371090E+001	1.000000000000000E+000	14	1.0626029E-002	4.8312603E-007	3.8686423E-005	2.3886047E-005	4.5466280E-005	3.1692307E+001
7.6103695E-002	2.0608588E+004	1.3618198E+004	2.4701604E+004	-3.3456810E+001	1.748858382351566E+004	-1.1004282E+000	-4.1990462E-003	1.5356589E+002	4.6674938E+001	1.000000000000000E+000	14	1.0625313E-002	4.3014668E-007	3.3775203E-005	2.2318723E-005	4.0483203E-005	3.3456810E+001
5.6966495E-002	2.2988309E+004	1.6133249E+004	2.8084588E+004	-3.5061268E+001	1.755011747801164E+004	-1.1004375E+000	-4.1805496E-003	1.7317245E+002	5.7146069E+001	1.000000000000000E+000	14	1.0622565E-002	3.7823466E-007	2.9145460E-005	2.0454352E-005	3.5606718E-005	3.5061268E+001
4.2644646E-002	2.7069949E+004	1.9412783E+004	3.3311234E+004	-3.5645596E+001	1.763230296807527E+004	-1.1004217E+000	-4.1383831E-003	1.9225064E+002	6.5292297E+001	1.000000000000000E+000	14	1.0623571E-002	3.1891855E-007	2.4395291E-005	1.7494694E-005	3.0019903E-005	3.5645596E+001
3.1913798E-002	3.1013768E+004	2.2117611E+004	3.8092551E+004	-3.5494740E+001	1.774211146622419E+004	-1.1004308E+000	-4.0865638E-003	2.2547760E+002	7.6015076E+001	1.000000000000000E+000	14	1.0622934E-002	2.7887171E-007	2.1373438E-005	1.5242565E-005	2.6251852E-005	3.5494740E+001
2.3876827E-002	3.8715668E+004	2.5563654E+004	4.6394000E+004	-3.3436474E+001	1.788886894634151E+004	-1.1004280E+000	-4.0359767E-003	2.6074774E+002	7.9166748E+001	1.000000000000000E+000	14	1.0624169E-002	2.2899879E-007	1.7987180E-005	1.1876797E-005	2.1554511E-005	3.3436474E+001
1.7841151E-002	4.5350602E+004	2.6867908E+004	5.2712063E+004	-3.0644569E+001	1.808526073438965E+004	-1.1004337E+000	-4.0262952E-003	3.3201938E+002	8.6260323E+001	1.000000000000000E+000	14	1.0624520E-002	2.0155767E-007	1.6321612E-005	9.6697186E-006	1.8970990E-005	3.0644569E+001
1.3377565E-002	5.8219121E+004	2.8631980E+004	6.4878781E+004	-2.6187815E+001	1.834717076992302E+004	-1.1004322E+000	-3.8671424E-003	4.1551978E+002	8.0926193E+001	1.000000000000000E+000	14	1.0625069E-002	1.6376801E-007	1.3831213E-005	6.8021473E-006	1.5413360E-005	2.6187815E+001
1.0005763E-002	5.7784688E+004	2.5871313E+004	6.3311887E+004	-2.4118977E+001	1.869732681871456E+004	-1.1004289E+000	-3.7138308E-003	6.1482495E+002	1.0266393E+002	1.000000000000000E+000	14	1.0626229E-002	1.6783940E-007	1.4415916E-005	6.4542819E-006	1.5794822E-005	2.4118977E+001
2.0001948E+005	4.0611087E+002	3.7841180E+002	5.5508698E+002	-4.2977901E+001	1.875902923383188E+004	-1.1004391E+000	-2.4217125E-003	2.1027282E-003	9.7721571E-004	2.000000000000000E+000	12	1.0110714E-002	1.8214647E-005	1.3180218E-003	1.2281251E-003	1.8015195E-003	4.2977901E+001
1.4967770E+005	4.0267441E+002	8.5057373E+002	9.4107513E+002	-6.4666420E+001	1.875971223439765E+004	-1.1006124E+000	-3.5559870E-003	1.2501181E-003	1.0212366E-003	2.000000000000000E+000	12	1.0128374E-002	1.0762556E-005	4.5467957E-004	9.6042478E-004	1.0626144E-003	6.4666420E+001
1.1201170E+005	8.7618921E+002	1.3289779E+003	1.5918197E+003	-5.6603313E+001	1.876039524608344E+004	-1.1005076E+000	-3.5350660E-003	1.0691509E-003	7.4522389E-004	2.000000000000000E+000	12	1.0178994E-002	6.3945649E-006	3.4578817E-004	5.2448129E-004	6.2821183E-004	5.6603313E+001
8.3828102E+004	1.5375453E+003	1.3001371E+003	2.0135546E+003	-4.0217617E+001	1.876095225397660E+004	-1.1004894E+000	-3.5350099E-003	1.4602976E-003	6.0882553E-004	2.000000000000000E+000	12	1.0775766E-002	5.3516137E-006	3.7922862E-004	3.2067296E-004	4.9663417E-004	4.0217617E+001
6.2734359E+004	1.9079637E+003	9.8927905E+002	2.1491855E+003	-2.7406736E+001	1.876150924000307E+004	-1.1004556E+000	-3.5107541E-003	2.5644596E-003	5.4335751E-004	2.000000000000000E+000	12	1.0396827E-002	4.8375659E-006	4.1306869E-004	2.1417609E-004	4.6529254E-004	2.7406736E+001
